# HZ S RI R 50
50000 -0.9953219293612671 0.03032012025439868 3.908840625446966e-05 -6.318656448739075e-05 0 0 0 0
10967990 -0.9933440490736216 0.060221655710605435 5.462836755233568e-05 0.00011370855141480817 0 0 0 0
21885980 -0.9908239442683201 0.08811417429606015 8.34202427471533e-05 0.00013858554397276683 0 0 0 0
32803970 -0.9875661006517813 0.11581721959303372 2.7103352679876945e-06 0.00021372817820323025 0 0 0 0
43721960 -0.983477910998506 0.14424379081616426 6.860257859901087e-05 0.000452560391169202 0 0 0 0
54639950 -0.9776963913741701 0.17198822559405832 5.207588583304502e-05 0.0004005862439492974 0 0 0 0
65557940 -0.9713451522379944 0.19936492643027545 -1.0723698868485349e-05 0.0004986654583327891 0 0 0 0
76475930 -0.9646329299930769 0.22688059284870643 5.94499030151069e-05 0.000472655864021092 0 0 0 0
87393920 -0.9562877903809913 0.2549953326204967 0.00019198723997967658 0.0005621625217090597 0 0 0 0
98311910 -0.9475714713643373 0.28291073216723905 0.0002286642619517875 0.00058033656266615 0 0 0 0
109229900 -0.9395828043324695 0.31031569695696004 0.00025924565781696335 0.0005733795453764345 0 0 0 0
120147890 -0.9295793301450613 0.3373627950864672 0.0004190725013581485 0.0005453102827450944 0 0 0 0
131065880 -0.9195926179381796 0.3625426400769909 0.0003017835421829437 0.0007297947006468292 0 0 0 0
141983870 -0.9079967755501587 0.38883292909623485 0.00042522137234850656 0.0007627673454395427 0 0 0 0
152901860 -0.8957755114239452 0.4138994522187243 0.0004770418291682746 0.0007794828862994693 0 0 0 0
163819850 -0.8827470991055936 0.4397317845307192 0.0004709287853413541 0.0009457324363049683 0 0 0 0
174737840 -0.8695860575379795 0.4647432989616592 0.0004552404344838951 0.000865497421212688 0 0 0 0
185655830 -0.8554038306717731 0.4892226045175923 0.000529395571624781 0.0009145671369999203 0 0 0 0
196573820 -0.8418028134589954 0.5131331436112818 0.000798823587593155 0.001111347027134925 0 0 0 0
207491810 -0.826403372453301 0.5352232337272389 0.0007245173505078993 0.000984599765650454 0 0 0 0
218409800 -0.8109125805508981 0.559726916389814 0.0007263890280901895 0.0009218547682670688 0 0 0 0
229327790 -0.7941571043435522 0.5817048137768068 0.0006823921918345327 0.000976810507822922 0 0 0 0
240245780 -0.7776309805285374 0.6023165990682918 0.0008088147519864253 0.0011338428822369579 0 0 0 0
251163770 -0.7615300415688006 0.6228037637891704 0.0009123335264383588 0.000983244865680619 0 0 0 0
262081760 -0.7449983674388038 0.6426872056069086 0.000805108673997872 0.0013264638320969189 0 0 0 0
272999750 -0.7270550003023251 0.6629064732255415 0.0010305823543358844 0.001339656797643878 0 0 0 0
283917740 -0.7102670681301296 0.6809578532958671 0.0011173784023681313 0.0013546824398552454 0 0 0 0
294835730 -0.6939425284597848 0.6988065572449654 0.0012392731111199769 0.0012626566143984612 0 0 0 0
305753720 -0.6742547407020095 0.7158058302967668 0.001346091797397193 0.0012091143355693358 0 0 0 0
316671710 -0.6563431989140357 0.7330868537843538 0.0013216286618039483 0.0012627646998567802 0 0 0 0
327589700 -0.6372636455615558 0.7485224938919305 0.0016243790937291549 0.0013741776326346286 0 0 0 0
338507690 -0.6187674550298358 0.7643293749725983 0.0016091864364992867 0.001264870538506949 0 0 0 0
349425680 -0.5991696160738879 0.7787631631266619 0.0015353022345466019 0.0011604125702682482 0 0 0 0
360343670 -0.5789612812352077 0.7929729947241392 0.001550101006227701 0.0011505061787620635 0 0 0 0
371261660 -0.5566148295167455 0.8067117741705552 0.0015844829605719411 0.0010478923971364404 0 0 0 0
382179650 -0.5381837925150995 0.8202088801577959 0.0015877745371150648 0.0011652489756181301 0 0 0 0
393097640 -0.515378133270532 0.8315186726630162 0.001592798930319136 0.0009786925273499597 0 0 0 0
404015630 -0.49571415291528803 0.8429260710582669 0.0016955929382627335 0.001150265162097778 0 0 0 0
414933620 -0.4719586877697743 0.8547897350549887 0.0018002477449845307 0.0010314834326783883 0 0 0 0
425851610 -0.4523084654582254 0.867286552802391 0.0018770222898696926 0.001199449536751565 0 0 0 0
436769600 -0.42902739093460496 0.8763486690039077 0.002012945558875789 0.0009586913530978545 0 0 0 0
447687590 -0.4042088497595109 0.8864546267421531 0.002114750353665801 0.0009741710262889806 0 0 0 0
458605580 -0.38054485542604327 0.8970756285797208 0.0021942105583236528 0.0009690162930610872 0 0 0 0
469523570 -0.35958780523295947 0.9040964532078751 0.0021442615383102195 0.0008943241422585382 0 0 0 0
480441560 -0.33437121390288593 0.913574792346413 0.0021417923461387696 0.0009421304263705876 0 0 0 0
491359550 -0.31306320580566166 0.9224948691279854 0.0022401320788917353 0.0008977175892418523 0 0 0 0
502277540 -0.2899672681075556 0.928327834911153 0.0023894988298525923 0.0008599035578162801 0 0 0 0
513195530 -0.2654178050331604 0.9376504888334442 0.0024303087935959615 0.0008981138404140672 0 0 0 0
524113520 -0.24652210652781434 0.9422388591027141 0.0024454574712719375 0.000812062146928613 0 0 0 0
535031510 -0.22667747808525202 0.9498566242168498 0.002472691830115039 0.000878653399417587 0 0 0 0
545949500 -0.20205451340278435 0.9533249363683375 0.002590772263537648 0.0007657013786718253 0 0 0 0
556867490 -0.18229336577967575 0.9599043368049033 0.0026838923824940007 0.0007305044767804219 0 0 0 0
567785480 -0.1641463479827483 0.9634309410075654 0.002621748882274059 0.0006806442562857047 0 0 0 0
578703470 -0.14390303183241956 0.9685844843742387 0.0029035926229978304 0.0005494007484031407 0 0 0 0
589621460 -0.11970398822450258 0.9712520994148163 0.00285621951790439 0.000478293524233678 0 0 0 0
600539450 -0.1021199303485987 0.9709338994966787 0.002978884553773673 0.0003541597718141407 0 0 0 0
611457440 -0.08174902980838152 0.9741464446276294 0.0029945618902991666 0.0002156496941338822 0 0 0 0
622375430 -0.06253205722084322 0.9734289196257492 0.002902569876552398 0.00011415172148893394 0 0 0 0
633293420 -0.04395682988661746 0.9749608461320115 0.003010333675831335 -4.208353265491798e-05 0 0 0 0
644211410 -0.02151867933804046 0.9756980787216221 0.002973307698043525 -4.929068144055644e-05 0 0 0 0
655129400 -0.004738533770357336 0.9720069793890779 0.0030027308264712854 -0.00015663154626285113 0 0 0 0
666047390 0.016364362862478218 0.9716516506619712 0.0028335093333478043 -0.00015691446320228327 0 0 0 0
676965380 0.038252151423914894 0.9701373932995043 0.0031071242098909845 -0.00010565433821763101 0 0 0 0
687883370 0.057696747356713964 0.9681087636087102 0.003039246036026369 -0.000274231680472513 0 0 0 0
698801360 0.07720472668867735 0.9646162532845105 0.00291522622218469 -0.00030146659127786566 0 0 0 0
709719350 0.09789825465219483 0.9591390273819774 0.002821957199121596 -0.000340088218254788 0 0 0 0
720637340 0.11557133365700595 0.9573415819932501 0.002863467115086309 -0.00041591687773088717 0 0 0 0
731555330 0.13584427205878885 0.9535422827018926 0.003048262510620224 -0.00043712293014597524 0 0 0 0
742473320 0.15629723829875727 0.9528636714271974 0.0029954172967490158 -0.0005039698563621186 0 0 0 0
753391310 0.1751255563981457 0.9488029972715859 0.003016743858426927 -0.0005442839698999811 0 0 0 0
764309300 0.19617310170889746 0.9439166830326582 0.003164004288676557 -0.0006005770121645427 0 0 0 0
775227290 0.21738106233402424 0.9382142403092574 0.0029759634989915762 -0.0007969542033207793 0 0 0 0
786145280 0.2348340367662787 0.9342634282279412 0.0030256714211081472 -0.0006842303748801526 0 0 0 0
797063270 0.2564543667068223 0.9297219750392163 0.0030346914152142 -0.000872603441978325 0 0 0 0
807981260 0.27705579916546685 0.9239998717140641 0.003113758356395386 -0.0008844847176120155 0 0 0 0
818899250 0.2937019677491589 0.9176390211905743 0.0029002524367195935 -0.0006542259941343227 0 0 0 0
829817240 0.3115544383040397 0.9129451048485636 0.0030581756200174157 -0.0007793939841276421 0 0 0 0
840735230 0.3294897642445216 0.9078029134172803 0.003317844037944375 -0.0008593056894114667 0 0 0 0
851653220 0.3425083133223081 0.9030282127215046 0.0031478996946372228 -0.0009968024328444497 0 0 0 0
862571210 0.36451883107546773 0.894974015915847 0.0033018781359360526 -0.0012172601540596994 0 0 0 0
873489200 0.3780190769145866 0.8878535737686021 0.0031696226250134325 -0.0013004508775273681 0 0 0 0
884407190 0.39736934232213583 0.8835150602747025 0.003315070133781266 -0.0012435416047585637 0 0 0 0
895325180 0.4078559585584889 0.8744179502008799 0.0034607240258702552 -0.0013784387010881303 0 0 0 0
906243170 0.42530415142911443 0.86731429659536 0.0033472598116541115 -0.0014519718926497096 0 0 0 0
917161160 0.4379988312474587 0.8562127577583595 0.003415275786071105 -0.0016442522997344364 0 0 0 0
928079150 0.4578433719732555 0.8501427068274096 0.003360980915541024 -0.0018693982201974247 0 0 0 0
938997140 0.47131038859894986 0.841268424397326 0.0033073160155098627 -0.002104349773865146 0 0 0 0
949915130 0.4831407501914674 0.8286127824428062 0.0030418745475266767 -0.0021696123651409635 0 0 0 0
960833120 0.5007666582018306 0.8196592524743098 0.0028628042881215818 -0.0022809001392224597 0 0 0 0
971751110 0.5147971665232919 0.8104648272357089 0.0026939089305988897 -0.00239509669724017 0 0 0 0
982669100 0.5277514911561711 0.7992481325445118 0.002616654070651933 -0.002352482795954082 0 0 0 0
993587090 0.5419810491799608 0.7863182304097672 0.0023159908911768025 -0.0021947432995699833 0 0 0 0
1004505080 0.556362647608859 0.775389498997283 0.0022414806144796136 -0.002230849905641186 0 0 0 0
1015423070 0.5712768245980547 0.7662521757236529 0.0022140776628476145 -0.0021884049554612085 0 0 0 0
1026341060 0.587244946175997 0.751020074223386 0.0021638779194572567 -0.0019396575975417479 0 0 0 0
1037259050 0.594796184536039 0.7432716547617313 0.0023540829822601356 -0.0020696575668585375 0 0 0 0
1048177040 0.610921510341536 0.7310862323002371 0.0025230267913772236 -0.002131070259997379 0 0 0 0
1059095030 0.6256495580094038 0.7170744175012971 0.0024625602958722828 -0.002073674591860413 0 0 0 0
1070013020 0.6364140126345875 0.7064628314790403 0.002354059711641167 -0.0020902995661088515 0 0 0 0
1080931010 0.6518031878825512 0.6936675679985642 0.0023490141843954104 -0.0022913138348966606 0 0 0 0
1091849000 0.6557458884848913 0.6861085287763465 0.002405968731322977 -0.00234404488095053 0 0 0 0
1102766990 0.6586025456090642 0.6879881503937548 0.0022384152006394765 -0.0022405842920014533 0 0 0 0
1113684980 0.6718138348005326 0.6704079022376886 0.00235526622519319 -0.0024703202163605465 0 0 0 0
1124602970 0.6853984006680407 0.6601542287354527 0.002260514145605312 -0.002547553535211104 0 0 0 0
1135520960 0.7034389344161426 0.648118228868742 0.0021354414586339425 -0.0025271093493405656 0 0 0 0
1146438950 0.7086949579544825 0.6338406760798011 0.00203045925510687 -0.002620567827830794 0 0 0 0
1157356940 0.7219608606364861 0.6212627513359578 0.002061382201439527 -0.0026549017169998235 0 0 0 0
1168274930 0.7247961467627502 0.6152017056120239 0.0019247378227244974 -0.0029054909799848747 0 0 0 0
1179192920 0.7380107240800436 0.6017171455632786 0.0016419966890770525 -0.0026670658850681123 0 0 0 0
1190110910 0.7527244654828662 0.5848062235102627 0.0014951174448913785 -0.0025891885656736248 0 0 0 0
1201028900 0.7583939676354942 0.5703725092883046 0.001501506876817085 -0.002610024298701869 0 0 0 0
1211946890 0.7689076247099567 0.5590007768695882 0.0015414011227177426 -0.0023482203873054055 0 0 0 0
1222864880 0.7785223282296204 0.5444784494685313 0.0014429858246373774 -0.002418028007289081 0 0 0 0
1233782870 0.7836325196524356 0.5335262704557668 0.0013440400716382584 -0.0024231355660478044 0 0 0 0
1244700860 0.7917268497549759 0.5173860280339655 0.001378262798876648 -0.0026121382395274855 0 0 0 0
1255618850 0.8000056372249873 0.5018981773550585 0.0013047642643924512 -0.002458896808174865 0 0 0 0
1266536840 0.8141142832680742 0.4835826531326046 0.001189871773233301 -0.00285461865885973 0 0 0 0
1277454830 0.8128367143997949 0.47954980223001814 0.0012059576692341836 -0.002637434502550234 0 0 0 0
1288372820 0.8229578895507295 0.4604498465560035 0.0009196849798496973 -0.002535888638479876 0 0 0 0
1299290810 0.8264171278843587 0.44961922146345346 0.0010093525810584629 -0.0024419716455036902 0 0 0 0
1310208800 0.8341072085383026 0.43490174048067154 0.0007282611463930272 -0.0023277439825703317 0 0 0 0
1321126790 0.8455046164060595 0.4163140752029204 0.0006464762510479938 -0.0024259805058170943 0 0 0 0
1332044780 0.8522314846434358 0.3993693296999202 0.0006881470337653315 -0.002178966176023375 0 0 0 0
1342962770 0.8556933426113353 0.38725469435935067 0.000444940707501436 -0.0021070830929331014 0 0 0 0
1353880760 0.861238868225868 0.3736166003970267 0.00046886096862184634 -0.002151226802342657 0 0 0 0
1364798750 0.8644127157580236 0.36444083683231 0.0007083912817715205 -0.002277053808236714 0 0 0 0
1375716740 0.876386594306325 0.3371092905196353 0.0003818142280781877 -0.0017128156108492014 0 0 0 0
1386634730 0.8799247721123447 0.32244892999936214 0.0006817443554274145 -0.0019568412402763734 0 0 0 0
1397552720 0.8858932578042475 0.3084001019380352 0.0003946091344095208 -0.001877629600368948 0 0 0 0
1408470710 0.8858214003141789 0.2969970275160007 0.0005974521986749677 -0.0017446721518694934 0 0 0 0
1419388700 0.8911434548765655 0.2745998988808433 0.00045122429086015217 -0.0018634638682251822 0 0 0 0
1430306690 0.9002055107613971 0.26426092126071227 0.00026295336565033945 -0.001855948033402306 0 0 0 0
1441224680 0.9038497180427498 0.2472545738457767 0.0001283184980445446 -0.0016753651222146983 0 0 0 0
1452142670 0.9031193981433022 0.23660679048156807 0.0001705264216358336 -0.0014420587869745773 0 0 0 0
1463060660 0.9099040253334741 0.2120571947820023 6.0169033556480504e-05 -0.0013519529949574732 0 0 0 0
1473978650 0.9124290596826042 0.20155821082664863 0.00024034492788401883 -0.0012309063785868944 0 0 0 0
1484896640 0.9158409999168046 0.18205019573356132 -1.991133435459236e-05 -0.0009704918673828485 0 0 0 0
1495814630 0.9160607242980637 0.1679802765371606 7.866310233144637e-05 -0.0009525141982228411 0 0 0 0
1506732620 0.9191556058891213 0.14890046961014503 0.0001725444049785806 -0.0007144343689999564 0 0 0 0
1517650610 0.9215667873476777 0.13691127595112307 8.104891019992703e-05 -0.0006599451376918469 0 0 0 0
1528568600 0.9221671337450622 0.11379352261649427 0.00013270864165896914 -0.0005143971746195895 0 0 0 0
1539486590 0.9235016126488227 0.09441138266258037 6.220886794238525e-05 -0.00044766114971062803 0 0 0 0
1550404580 0.9213266669748177 0.0896521474525537 0.0003362620924061214 -0.00038717048259208624 0 0 0 0
1561322570 0.9219740458235778 0.0746529617312231 0.00014581126666988296 -9.681968626072191e-05 0 0 0 0
1572240560 0.9224321338700643 0.05560990103812413 0.00022565095187330122 -0.00015340982138936524 0 0 0 0
1583158550 0.9235496397691382 0.03538432089448117 0.00016088314596712813 -3.19094582170083e-05 0 0 0 0
1594076540 0.9221974762570406 0.027764173818190244 0.0003149474957667458 0.0002339182549304839 0 0 0 0
1604994530 0.9178018712716872 0.008998257728293175 0.0002640279843000831 0.00026168046906797335 0 0 0 0
1615912520 0.9181667912112378 -0.015927271960864738 0.0004177186616012173 0.000685402504800906 0 0 0 0
1626830510 0.9193604724927956 -0.035183700902595955 0.000548400395903441 0.0006995557755930705 0 0 0 0
1637748500 0.9143984870819446 -0.05093763342323226 0.0004342051141017841 0.0007984404820151883 0 0 0 0
1648666490 0.915334750677838 -0.0621881201491907 0.0007263514062181038 0.0008668342735911437 0 0 0 0
1659584480 0.9126236917269077 -0.0815831556766818 0.0006716553434048308 0.0009897701593663602 0 0 0 0
1670502470 0.910406114135467 -0.10436251500344486 0.0007957602546964987 0.0012285439477847156 0 0 0 0
1681420460 0.9056404003166957 -0.1279246207826575 0.0008781719425703432 0.0013134993062895225 0 0 0 0
1692338450 0.9020993881402862 -0.13794645628555466 0.0010057279015599145 0.0014285807942298451 0 0 0 0
1703256440 0.897524411815603 -0.16385893514664884 0.0009939540658360855 0.00171808658110498 0 0 0 0
1714174430 0.8931335942110997 -0.1773260010074552 0.0011452228748384538 0.0016368308049342704 0 0 0 0
1725092420 0.8879416006523695 -0.19584011293709325 0.001327980965669104 0.0020882255432513766 0 0 0 0
1736010410 0.8794165182139371 -0.22164818512097456 0.001411685672068308 0.002179335034113657 0 0 0 0
1746928400 0.8728264141906319 -0.23551869879958232 0.0018058579351471979 0.0025015724664506824 0 0 0 0
1757846390 0.8668406102174911 -0.2553068319337324 0.0022045142941333694 0.0026762391334969214 0 0 0 0
1768764380 0.8621923372135719 -0.27469368965443774 0.0022665222004471944 0.002447429005004432 0 0 0 0
1779682370 0.8532716546045233 -0.2896948857338217 0.002453656828186341 0.002375353742169354 0 0 0 0
1790600360 0.8395566174628182 -0.3206080034477183 0.002564577618709144 0.002311339726096342 0 0 0 0
1801518350 0.8313953802410476 -0.3404569742953859 0.002638484664886885 0.002211620495145053 0 0 0 0
1812436340 0.8197604101639089 -0.36593056622810094 0.002498613744697038 0.002164108307125723 0 0 0 0
1823354330 0.8176036872610368 -0.3747717120755933 0.002772394116985423 0.002128292427902531 0 0 0 0
1834272320 0.8037093536680504 -0.3978560765339064 0.002534395349093953 0.0019122248617832107 0 0 0 0
1845190310 0.7916702223073216 -0.4222295575674688 0.0024175513379927657 0.001772472421391429 0 0 0 0
1856108300 0.7736961409771732 -0.44444438448183365 0.002183506542299391 0.0017858065417418103 0 0 0 0
1867026290 0.765411741952622 -0.458191705443347 0.00199432969114703 0.0017074279419943463 0 0 0 0
1877944280 0.7527580826891791 -0.4790338014657144 0.0018000045822042009 0.001597124732430243 0 0 0 0
1888862270 0.7314904540949372 -0.5023648321659895 0.0013999703198729245 0.001337674414915344 0 0 0 0
1899780260 0.7115993251301836 -0.5312972724480006 0.0007316379906619129 0.000956123484227606 0 0 0 0
1910698250 0.6881050476620203 -0.5487852725310045 -0.00030873734887840897 0.0006313449003734732 0 0 0 0
1921616240 0.6721261265000529 -0.5660858516129584 -0.001287219511786554 0.0002807323601034883 0 0 0 0
1932534230 0.6508244584665284 -0.5809772185311158 -0.003105105574785062 1.72121176127655e-05 0 0 0 0
1943452220 0.6276877529390009 -0.5998232750818827 -0.004828274193365049 -0.000390341066561085 0 0 0 0
1954370210 0.6061986581883408 -0.626707867617666 -0.007409449853214608 -0.0002610386410630079 0 0 0 0
1965288200 0.5733916101438354 -0.647094773729927 -0.010423879526597644 -0.0004743195809410622 0 0 0 0
1976206190 0.5410340579785892 -0.6696785942628842 -0.014417473678318369 -0.00016781687326354938 0 0 0 0
1987124180 0.5250433884134682 -0.6814497239786056 -0.01949122573707476 -4.689628685955802e-05 0 0 0 0
1998042170 0.4745602042656654 -0.704299339544375 -0.026510502044406196 0.00013267108331015335 0 0 0 0
2008960160 0.4253238282984443 -0.7219685016884416 -0.03551262165592112 0.0014166398186023197 0 0 0 0
2019878150 0.3820339147618925 -0.7444756460440296 -0.04792488097661563 0.0041638962373136855 0 0 0 0
2030796140 0.3300083391949337 -0.7512372122832655 -0.06563186476801898 0.009192620867924871 0 0 0 0
2041714130 0.2572625204277108 -0.765480371884328 -0.0879786851362893 0.021847306060128628 0 0 0 0
2052632120 0.18860159823621922 -0.753848577761233 -0.11607560391739577 0.04443937951594966 0 0 0 0
2063550110 0.1023491052178697 -0.741793961605291 -0.14703261794511568 0.0841047134749369 0 0 0 0
2074468100 0.004084478265683047 -0.7001950493067081 -0.1680247952569082 0.15192146767356834 0 0 0 0
2085386090 -0.07682667785676466 -0.6246027871890364 -0.17249445327873936 0.24175898900242052 0 0 0 0
2096304080 -0.14561334649314805 -0.4958813222941285 -0.13349498204608795 0.3579076888039779 0 0 0 0
2107222070 -0.13224534924344697 -0.32963401165317724 -0.019276376386091195 0.4737991854402716 0 0 0 0
2118140060 -0.02200218857176615 -0.19870063575662725 0.1670588241391643 0.5240047969150439 0 0 0 0
