# HZ S RI R 50
50000 -0.995014654215625 0.02077118634472682 6.852900713700932e-05 0.00012440375072864465 0 0 0 0
7494045 -0.9954562500386612 0.04119669559839295 -8.717382876452942e-05 8.422160737094348e-05 0 0 0 0
14938090 -0.9930030167978725 0.06073381645245205 -3.3132914809046746e-05 -0.00015226223159706118 0 0 0 0
22382135 -0.9915741620536124 0.0800145656165136 -4.907199665026749e-05 3.695163247245703e-06 0 0 0 0
29826180 -0.9893252781527174 0.09960869969088061 -3.428065855420504e-05 0.0002050173471605199 0 0 0 0
37270225 -0.9867815973039582 0.11899634510006168 -5.8837251787025494e-05 0.00033234986271779755 0 0 0 0
44714270 -0.9835919611095723 0.1384158340560846 -8.038484718942859e-06 0.0002837592322793245 0 0 0 0
52158315 -0.9806023699387867 0.15732724775990486 5.453767905275579e-05 0.000257087754018938 0 0 0 0
59602360 -0.9772583824478253 0.17680600048875245 4.45197477068906e-05 0.0003124922955816226 0 0 0 0
67046405 -0.9723535952461752 0.19484933288557293 4.1979602337147444e-05 0.0004853485511623782 0 0 0 0
74490450 -0.968023595577751 0.21372300281025255 9.156171410554897e-05 0.0002452181854350493 0 0 0 0
81934495 -0.963415028783592 0.23209801382821732 -0.0001004647829950998 0.0005713264806407548 0 0 0 0
89378540 -0.9581565889758842 0.2509322658274425 6.663017679558955e-05 0.0007501195068227461 0 0 0 0
96822585 -0.9551446309699783 0.26963684762182083 0.00030054885630502877 0.0005081587927902275 0 0 0 0
104266630 -0.9471697094770313 0.2903552242937324 0.0002969666353819192 0.0005791508009727658 0 0 0 0
111710675 -0.940768736320112 0.30716287170666023 0.0002826667103714235 0.0006668484902718539 0 0 0 0
119154720 -0.9342893313797566 0.3263173212439915 0.000308554500683098 0.0008124120743457984 0 0 0 0
126598765 -0.9273736443017634 0.3428690163617717 0.00013112654690204147 0.0005065392573956413 0 0 0 0
134042810 -0.9197271092754284 0.360374185176144 0.00033156260005269225 0.0007499937026904053 0 0 0 0
141486855 -0.9113892967717574 0.37943189656977117 0.0004321607815827013 0.0008626196073581957 0 0 0 0
148930900 -0.9043805413735331 0.39608818860875344 0.0004596096545798068 0.0008073789525998176 0 0 0 0
156374945 -0.8959905184417072 0.41370029135919195 0.0003320821346798374 0.0009338688253756844 0 0 0 0
163818990 -0.8868958964492331 0.43085936601804037 0.00042896021597519784 0.0008613771242308022 0 0 0 0
171263035 -0.8784124215204179 0.4477281871557897 0.0003417408866410206 0.0008366793929847554 0 0 0 0
178707080 -0.8701434180524693 0.46342550874126814 0.0005719282658842044 0.0008843322129487563 0 0 0 0
186151125 -0.8608587843440744 0.4813413474011031 0.000542022450535887 0.0010175574119704552 0 0 0 0
193595170 -0.8502695485231353 0.49831582575014277 0.0006014426853085863 0.0009288522906460603 0 0 0 0
201039215 -0.840067142097088 0.5144105131771798 0.0007066019998556069 0.0012624618448169225 0 0 0 0
208483260 -0.8304831660259498 0.5298311100816385 0.0005711839411125644 0.0009354674955218671 0 0 0 0
215927305 -0.8199045106344677 0.5445463372491521 0.0005116616677317958 0.0010317126489119042 0 0 0 0
223371350 -0.8107215634635299 0.5598829221635551 0.0006792772247299148 0.0009642998235027541 0 0 0 0
230815395 -0.7993139079377872 0.5755584493940401 0.0006599369434966046 0.0011075739964341235 0 0 0 0
238259440 -0.787778042222488 0.588824528524972 0.0009333602113793928 0.0011422795333765848 0 0 0 0
245703485 -0.774992976607901 0.6059356160490875 0.0007711212649526268 0.0010111510797760359 0 0 0 0
253147530 -0.7650224915675616 0.6193050247397168 0.0008430313239670796 0.001270414817299296 0 0 0 0
260591575 -0.7525606338866898 0.63355205838331 0.0011159799564122558 0.0015311625745186464 0 0 0 0
268035620 -0.741323226403746 0.6465180301285448 0.0008164487288899811 0.001375614065952776 0 0 0 0
275479665 -0.7311834058444042 0.6604712207626491 0.001211112947559232 0.0014369194385282164 0 0 0 0
282923710 -0.7178807450748004 0.6739602095030885 0.0012462421016925982 0.001444486832832856 0 0 0 0
290367755 -0.7060855603159758 0.687546355857606 0.0011070973201034984 0.001456481900430104 0 0 0 0
297811800 -0.6943757314505485 0.6991397977373734 0.0013607858360886703 0.0013680715027778285 0 0 0 0
305255845 -0.6791939718646787 0.7126074838719428 0.0013569697186916752 0.0013691949225797103 0 0 0 0
312699890 -0.6702358851291856 0.7211628081086591 0.0015423585930962654 0.0014039120440327087 0 0 0 0
320143935 -0.6571205294964528 0.7342248427494469 0.0014129343953069567 0.001370909674295299 0 0 0 0
327587980 -0.6419915956042922 0.7455982142164497 0.0015397842698523236 0.0011833278479853116 0 0 0 0
335032025 -0.631070857304187 0.7559994204261359 0.0015909301440473812 0.0013065672908944778 0 0 0 0
342476070 -0.6172572075964466 0.7652863934375945 0.0015610227973010984 0.0012072430707319335 0 0 0 0
349920115 -0.6018252505337558 0.7774209394301902 0.001711507084650898 0.0010978940173360478 0 0 0 0
357364160 -0.5895008642881652 0.7854566278801213 0.0015831905778935298 0.0011918572107165128 0 0 0 0
364808205 -0.5758032697879523 0.7949062646956284 0.0015401367375451568 0.0011028448994189202 0 0 0 0
372252250 -0.5619111733446822 0.8042768221969424 0.001562891451062969 0.001238222311468598 0 0 0 0
379696295 -0.5481618160886557 0.813920312121461 0.001702388810646229 0.0010778328383654603 0 0 0 0
387140340 -0.5318989149527686 0.823193154123429 0.0016835830308803658 0.00112086349577487 0 0 0 0
394584385 -0.520921467639975 0.8281533439704151 0.001940664155095351 0.0011795125383884306 0 0 0 0
402028430 -0.5026946953340655 0.8390414386726283 0.001802443473246765 0.0011425586996882285 0 0 0 0
409472475 -0.49137479877124335 0.8464099912148635 0.001807627510779482 0.0010779215702022141 0 0 0 0
416916520 -0.4760474798369538 0.853525483235508 0.0018147474663319637 0.0010831427716919736 0 0 0 0
424360565 -0.4596752775654992 0.862241601551071 0.0018612778117174798 0.001146926709573367 0 0 0 0
431804610 -0.446532539593166 0.8671034371808541 0.0019333137434357783 0.00120801257852657 0 0 0 0
439248655 -0.4281672768568853 0.8756029950619334 0.0018710904829763503 0.0010479354057177008 0 0 0 0
446692700 -0.41150570639139145 0.8827581702965036 0.00196382742675886 0.0012165218125515208 0 0 0 0
454136745 -0.39698451849509153 0.8912020777046988 0.002080719011685134 0.0011596561011395544 0 0 0 0
461580790 -0.38336108457168816 0.8966266106076871 0.0021819615328378225 0.0010207491020067742 0 0 0 0
469024835 -0.3679210882371874 0.9015653869979511 0.002121253172999593 0.0009680808317175329 0 0 0 0
476468880 -0.35205131979534937 0.9067525626324533 0.0022808152378207013 0.0010791148047858972 0 0 0 0
483912925 -0.3363429295215214 0.9142517559272341 0.0024251593477081627 0.000980983463796229 0 0 0 0
491356970 -0.3215838856088489 0.9205103301247548 0.0022994999103181767 0.0009716299565280052 0 0 0 0
498801015 -0.3035157143398678 0.9252729948193572 0.002369832188901831 0.0009654046860447282 0 0 0 0
506245060 -0.29202943785131147 0.9280060696678951 0.0023957366413993805 0.0009493519343100645 0 0 0 0
513689105 -0.27252468229862187 0.9338196985620338 0.0024654590637173536 0.0009272560617082656 0 0 0 0
521133150 -0.259347075317311 0.941013504013599 0.002625703060156818 0.0008508728074084678 0 0 0 0
528577195 -0.24120106843266254 0.9455606941793161 0.002511412343123391 0.0008422792727414636 0 0 0 0
536021240 -0.22620885889346007 0.9478390414599935 0.0025626346423380988 0.0006703694620055512 0 0 0 0
543465285 -0.2121417359422482 0.951777794041783 0.0025433136855847333 0.0007300986212255873 0 0 0 0
550909330 -0.1982371299268274 0.9558234351759952 0.0027629430887516175 0.0005742210577260787 0 0 0 0
558353375 -0.1831332339603191 0.9581373438611455 0.0027544402056282435 0.0006704616195662528 0 0 0 0
565797420 -0.1690610265165514 0.959871433012978 0.002990815556428386 0.0006788227375825777 0 0 0 0
573241465 -0.15897142846364565 0.9660129024470864 0.0029019202530908756 0.0006448116834488965 0 0 0 0
580685510 -0.142310812355294 0.9671321935131215 0.002827226067518185 0.0005111436466525899 0 0 0 0
588129555 -0.1279746777854122 0.9707303688564658 0.002895495970415634 0.00042486237949199574 0 0 0 0
595573600 -0.11852214424548119 0.9684046088583025 0.0028007835450435535 0.0004357443922766234 0 0 0 0
603017645 -0.10463252775381152 0.9709885072560948 0.0029753416880024756 0.0003828813111010374 0 0 0 0
610461690 -0.08955844233517864 0.9738789552367432 0.0029168233185658168 0.0002578063546367249 0 0 0 0
617905735 -0.07194046249120935 0.975762003430689 0.002970854489634087 0.00023210053484237634 0 0 0 0
625349780 -0.06215023496804134 0.9742021587724156 0.0029342309992734304 3.325141844376741e-05 0 0 0 0
632793825 -0.047693538372188454 0.9736738779241695 0.0029319477861576033 3.0401146897284033e-05 0 0 0 0
640237870 -0.03741345134588377 0.9733398169330489 0.002924391722072024 -7.821498597286074e-05 0 0 0 0
647681915 -0.022221156014502145 0.9751862299023611 0.0028107557143204876 7.561437397703193e-07 0 0 0 0
655125960 -0.006213605191580254 0.971155486158073 0.0029709289122420344 -1.8506947033626235e-05 0 0 0 0
662570005 0.009643530889059405 0.9723834934251572 0.0029538895573345313 -0.00014440944076020768 0 0 0 0
670014050 0.027942367748192216 0.9749213259431898 0.002975155300521694 -0.00018659509810936396 0 0 0 0
677458095 0.03321826969576236 0.9709331735481006 0.0030934377681181694 -9.123802996567076e-05 0 0 0 0
684902140 0.04705212663436311 0.964166641427774 0.003027672485222494 -0.0002488091132073587 0 0 0 0
692346185 0.06068832057119778 0.963710053749283 0.002910081986733649 -0.0003024285468250137 0 0 0 0
699790230 0.07755362370882606 0.967206316801104 0.0027743694174721454 -9.579476164598348e-05 0 0 0 0
707234275 0.0895650679281616 0.961500112362192 0.0030003852431663863 -0.00040605158398209797 0 0 0 0
714678320 0.10489422894654349 0.9552495392457339 0.002961576355317791 -0.00014695839454719305 0 0 0 0
722122365 0.11007302475781412 0.9590598164977608 0.0029072632290620144 -0.00028732227218669664 0 0 0 0
729566410 0.13146982236839366 0.9534214516187451 0.002834213914795917 -0.00035430174031995574 0 0 0 0
737010455 0.14215049119896736 0.9520676842412448 0.0026833906800688106 -0.00047815302751500903 0 0 0 0
744454500 0.15507608272418272 0.9505239627119794 0.003416345870999667 -0.00031869339299006475 0 0 0 0
751898545 0.16277422628605104 0.945612753361672 0.002949385411522485 -0.0009472635036441627 0 0 0 0
759342590 0.17416990717565517 0.9461375773300773 0.002745591534241726 -0.00073400387080877 0 0 0 0
766786635 0.18512354613673274 0.9480265320789378 0.0030961081127555746 -0.0005394196519335221 0 0 0 0
774230680 0.19998123400763446 0.9439214850041742 0.0028760921090653724 -0.0003027667931322876 0 0 0 0
781674725 0.21269502539279092 0.9375068918608094 0.002950286421765563 -0.000560694229981507 0 0 0 0
789118770 0.22327783386782366 0.9351524975287546 0.0031355189606733754 -0.0007638764770376542 0 0 0 0
796562815 0.2409038250122427 0.9316863890135829 0.003094471709065304 -0.0009456796620199217 0 0 0 0
804006860 0.2535543028304294 0.9277863519938621 0.0036113460378825197 -0.001017508831939274 0 0 0 0
811450905 0.26371720092932294 0.9257739700555946 0.002897067984037594 -0.0006691554517408381 0 0 0 0
818894950 0.2813460512125416 0.9200401611677328 0.00296137425403547 -0.0010201658210251608 0 0 0 0
826338995 0.288337059629146 0.9258501587695668 0.002924023590423077 -0.000874194305115722 0 0 0 0
833783040 0.3028431588113898 0.9164361788242212 0.002889691049213704 -0.0006034939498204212 0 0 0 0
841227085 0.3150237744517455 0.9120384345038204 0.0029889619335788328 -0.000826146513720406 0 0 0 0
848671130 0.3291819068193055 0.9072898623408859 0.002812890876253044 -0.0005117297464539408 0 0 0 0
856115175 0.33769124282295754 0.9047200264830598 0.0031577308257470034 -0.0009789073839213227 0 0 0 0
863559220 0.35017654309010093 0.9012665160596182 0.0032438021040085327 -0.0009414249223257562 0 0 0 0
871003265 0.36057080687550347 0.8951097844053262 0.003294930608321786 -0.0008807316881978519 0 0 0 0
878447310 0.37216072214030893 0.8910663832859103 0.0032281017473957795 -0.0009643417616026701 0 0 0 0
885891355 0.3866389192627044 0.8841107760797159 0.00336471840478058 -0.0012701102471617735 0 0 0 0
893335400 0.39492274587739484 0.8846608307829444 0.0033705849833176663 -0.0012607448266975215 0 0 0 0
900779445 0.4027137024369572 0.874945712333243 0.003457395721716389 -0.0012643374234835682 0 0 0 0
908223490 0.4179517432510426 0.8712633526715913 0.0033108571829713654 -0.0013890159852840013 0 0 0 0
915667535 0.4323154006981038 0.8617982239143759 0.003492472480963777 -0.0012599753738773648 0 0 0 0
923111580 0.4406769316882833 0.8612453241632836 0.0035093786353701272 -0.0016466697313332137 0 0 0 0
930555625 0.446634240011843 0.8544846261080236 0.0035328967967699996 -0.0017623418961405044 0 0 0 0
937999670 0.4558047566328978 0.8515861640142552 0.003512257191347425 -0.002017636545741546 0 0 0 0
945443715 0.47339472532538507 0.8380946876648194 0.003485233485077849 -0.0019961545912378247 0 0 0 0
952887760 0.47936140512355513 0.8343558877272556 0.003348009428681739 -0.0021427280593057014 0 0 0 0
960331805 0.4935758984122779 0.8264927929062607 0.0031391831654229564 -0.002414489820611523 0 0 0 0
967775850 0.49651168319338773 0.8230147087442676 0.0029483095133143586 -0.0025818338389917424 0 0 0 0
975219895 0.5070212795266663 0.8157251277107223 0.0027850970728107495 -0.002506260149539724 0 0 0 0
982663940 0.5134664273509613 0.8076987695074017 0.0026780179462850898 -0.0023999214662604597 0 0 0 0
990107985 0.5300946274049281 0.7992425409097748 0.002701525018477354 -0.0024612758923649586 0 0 0 0
997552030 0.5410600166529874 0.7879119437014738 0.00234929108216803 -0.0023109070418884064 0 0 0 0
1004996075 0.543147787687885 0.7836745688092219 0.002377233602737803 -0.002344874663082114 0 0 0 0
1012440120 0.5580763059440427 0.7723419470495179 0.0023099491563032606 -0.0022440860984769286 0 0 0 0
1019884165 0.5652682191617525 0.7662495292107285 0.002164330585231107 -0.0023018192380585027 0 0 0 0
1027328210 0.5733851654966428 0.7594037439696988 0.0022844013384223866 -0.0022547543649285673 0 0 0 0
1034772255 0.5895131260875393 0.7500281062305347 0.0021166752452790507 -0.0020406629174316 0 0 0 0
1042216300 0.6009937174131486 0.7381153952790399 0.002326776737658902 -0.002075222815475834 0 0 0 0
1049660345 0.6046016978047086 0.7335616987478053 0.0023621388559468396 -0.002131411871828999 0 0 0 0
1057104390 0.6181349824922429 0.7285325154395937 0.0022978499434732043 -0.0020860648338291974 0 0 0 0
1064548435 0.6263015902604678 0.7185590860719745 0.0024895790911546737 -0.0019269146592083767 0 0 0 0
1071992480 0.6309294097621801 0.7143138490082444 0.0023736368166266905 -0.0021169264178001225 0 0 0 0
1079436525 0.6405905217320104 0.7041765621946668 0.0023746406283073926 -0.002151421066732649 0 0 0 0
1086880570 0.6550622860531085 0.6887747178803756 0.0026011290117713536 -0.0021798968023096807 0 0 0 0
1094324615 0.6559838235783811 0.6892918526237737 0.0024492969221946133 -0.002303771682259479 0 0 0 0
1101768660 0.6652330035649645 0.6766094020968636 0.00249279525127801 -0.0024211117542923214 0 0 0 0
1109212705 0.6724066799605394 0.6730675723884121 0.002476825809524743 -0.002473609485176151 0 0 0 0
1116656750 0.6803493331194038 0.664395145641579 0.0024493232143330593 -0.0025063929468733524 0 0 0 0
1124100795 0.6892801768067992 0.6508602146368904 0.002317731637787066 -0.0026132374931038607 0 0 0 0
1131544840 0.6971364320561092 0.6443096068074551 0.0021152914138912017 -0.002562352981668215 0 0 0 0
1138988885 0.7071163366475837 0.6377994592094653 0.0020811001916285466 -0.0027744519041049747 0 0 0 0
1146432930 0.7178901625770847 0.6284847907325839 0.0021336818764030683 -0.002731737799675475 0 0 0 0
1153876975 0.7167736853656292 0.6208557166229988 0.0020277127111738313 -0.0026793984465729964 0 0 0 0
1161321020 0.7284839655287696 0.6153189223544797 0.0019269955323144715 -0.0029477724909036987 0 0 0 0
1168765065 0.7372962685653424 0.6065881664526446 0.0016992849101805292 -0.003023739745013787 0 0 0 0
1176209110 0.7424204354581528 0.5982612938897843 0.0017671488865428318 -0.0027597686643472596 0 0 0 0
1183653155 0.7514513156153062 0.5857076255150157 0.0015870750049307933 -0.0028682641855624154 0 0 0 0
1191097200 0.7517921955366816 0.5756659807018738 0.0013777367180307838 -0.002771739434407679 0 0 0 0
1198541245 0.7621630468262501 0.565559136725277 0.0014639793040381076 -0.0027365616644161646 0 0 0 0
1205985290 0.7678138039476347 0.559992634668679 0.0012036043101119863 -0.0026396682774149105 0 0 0 0
1213429335 0.7699686671846063 0.5563749847397486 0.0011352806549461665 -0.0027189514144581334 0 0 0 0
1220873380 0.7791816945917154 0.5390112052356355 0.001322066362397442 -0.0027110242385986246 0 0 0 0
1228317425 0.7834857264368595 0.5416179105876386 0.001269161721768382 -0.002610323303393835 0 0 0 0
1235761470 0.7913819188587199 0.5243682976629092 0.0013691533131381286 -0.002509105001413012 0 0 0 0
1243205515 0.7974037828140149 0.5117469310494129 0.0010019993378445296 -0.002640797582415941 0 0 0 0
1250649560 0.8000405622338528 0.5030752463098577 0.001142062410623193 -0.0025463780950905567 0 0 0 0
1258093605 0.808040321449465 0.49388238255687755 0.0012478709865723471 -0.002911113435997708 0 0 0 0
1265537650 0.8113355669654179 0.4861590802689053 0.0010596594375534571 -0.0028699953638212368 0 0 0 0
1272981695 0.8147594948211491 0.4777860393235952 0.0009650196112306727 -0.0025274459941226086 0 0 0 0
1280425740 0.8226060660991051 0.46441714755489705 0.0008330891408188987 -0.002644880405838245 0 0 0 0
1287869785 0.8244819022296135 0.4603993424258461 0.0007369576509716374 -0.002641061723809165 0 0 0 0
1295313830 0.8286695096905539 0.4410361255772227 0.000736210728364021 -0.002615824122124029 0 0 0 0
1302757875 0.8283044508314508 0.4419633051884314 0.0006102409855124223 -0.00240589048070992 0 0 0 0
1310201920 0.834593369979984 0.4290527627439391 0.0008173860946351243 -0.002260712853967003 0 0 0 0
1317645965 0.8453541472232797 0.40922147900079997 0.0006724326721290895 -0.0020288204233600143 0 0 0 0
1325090010 0.8498611289929395 0.4035146084961956 0.0004948137472526745 -0.0019827533871269627 0 0 0 0
1332534055 0.854134897928978 0.3892182008132319 0.0006290860322530264 -0.002010261451214919 0 0 0 0
1339978100 0.8529681644362357 0.3860225319889283 0.0005309211195271339 -0.002143301673217323 0 0 0 0
1347422145 0.8639665348500363 0.3684875185378412 0.00033085603177710024 -0.0021341049354250455 0 0 0 0
1354866190 0.866668736799577 0.3580453493704276 0.0002831002440876773 -0.002151653534272326 0 0 0 0
1362310235 0.8677716736167352 0.36285706377202737 0.0005129485198787333 -0.0016953038199124762 0 0 0 0
1369754280 0.8712819745059502 0.3425800841681994 0.00041448932796921974 -0.0016768555549692274 0 0 0 0
1377198325 0.8762270217270497 0.3362413961691069 0.0006266151088103581 -0.0018711641749556928 0 0 0 0
1384642370 0.8766572605762687 0.3233810092721708 0.0004160468221200841 -0.0017393633602736781 0 0 0 0
1392086415 0.8844680865527306 0.31089306695341096 0.0004983588897693123 -0.0016450557233523998 0 0 0 0
1399530460 0.8842443987429145 0.29851911373324724 0.0003780072593102014 -0.00186227789974235 0 0 0 0
1406974505 0.886576642021534 0.2913735892249126 0.0006290263271750219 -0.0018572794158603445 0 0 0 0
1414418550 0.8940368909317257 0.26836159800529524 0.0008961942891470026 -0.0015379173576519805 0 0 0 0
1421862595 0.8988772180144041 0.26075354939985657 0.0005872133942132878 -0.0016199287609666995 0 0 0 0
1429306640 0.9010410520778379 0.2527550934323384 0.0004576951888323973 -0.0014629045321506641 0 0 0 0
1436750685 0.8994056337085496 0.2420174428570328 0.0003751244980247756 -0.00173926952200636 0 0 0 0
1444194730 0.9038633851782369 0.23279807671205402 0.0005132298339962018 -0.0017053008167848141 0 0 0 0
