# HZ S RI R 50
50000 0.9960300168230549 -0.013404036593501405 -4.710022444287678e-06 0.00020739616958840136 0 0 0 0
7322645 0.9995420350815689 -0.02438609259414736 -0.0001316061850064782 0.0005490219707053027 0 0 0 0
14595290 0.9988976817338328 -0.03695816258339608 3.2789097425265095e-05 0.0007687047417869129 0 0 0 0
21867935 0.999025988700256 -0.05012218202362746 0.0001530037031913087 0.001076914770489649 0 0 0 0
29140580 0.9981534852384263 -0.06250484982981933 0.0002750578293855165 0.0014065529646955584 0 0 0 0
36413225 0.9968904002933356 -0.0749245849930617 0.0003514168024676658 0.0016658802830125331 0 0 0 0
43685870 0.9966393680807374 -0.08699484092456328 0.000459988234346308 0.0017924176169354022 0 0 0 0
50958515 0.9951942189380418 -0.09938836129512707 0.00023156634207678546 0.0022185933405608244 0 0 0 0
58231160 0.9934381292355063 -0.11152176890833289 0.00033171627463883334 0.0023215791320611284 0 0 0 0
65503805 0.991881904000268 -0.12444715752729481 0.0004622680833394224 0.002639150904634591 0 0 0 0
72776450 0.9906134950237523 -0.13653728805424156 0.0005990727269917725 0.0027198224834360882 0 0 0 0
80049095 0.9889439053836971 -0.14801818717053586 0.0004589112217686938 0.002842993607937006 0 0 0 0
87321740 0.985947801786011 -0.16028674928215061 0.0005395518923555395 0.003340280631330011 0 0 0 0
94594385 0.986010067081554 -0.172688532364102 0.0007709338628508815 0.0034228982613433274 0 0 0 0
101867030 0.9834301649260571 -0.18408268672533573 0.0008523008874035358 0.003597319059577838 0 0 0 0
109139675 0.9797810229827529 -0.19674918307592776 0.0007195021452818353 0.004110986620757967 0 0 0 0
116412320 0.9781148628551878 -0.20752498846354325 0.000734447334019681 0.00427924782239228 0 0 0 0
123684965 0.9740955599605275 -0.22036471228980786 0.000951279266799032 0.004465526371146372 0 0 0 0
130957610 0.971779392608214 -0.2321568165438802 0.0011323977187446676 0.004678576457111538 0 0 0 0
138230255 0.9697928288477227 -0.2445389617208196 0.0010051406985166285 0.005014911076355989 0 0 0 0
145502900 0.9660898833398163 -0.2556447499462399 0.0012472078154899316 0.005154297591735439 0 0 0 0
152775545 0.9630564041734757 -0.2671718251511461 0.0014350527314847248 0.00580497635796043 0 0 0 0
160048190 0.9601496591198513 -0.27943996978390484 0.001552959537027236 0.00598170993507062 0 0 0 0
167320835 0.9566421648175134 -0.29060350913339317 0.0016103127334646853 0.006279423648400952 0 0 0 0
174593480 0.9531728009580954 -0.30161095456083814 0.0018128430488864103 0.006354492126372426 0 0 0 0
181866125 0.9488742177960122 -0.3129577431197774 0.0020301094577502826 0.00640175317013362 0 0 0 0
189138770 0.946033761823368 -0.3239684413890751 0.002287307811528601 0.006972712143095124 0 0 0 0
196411415 0.9411502004833411 -0.3352818463829417 0.002593824326055916 0.007274056682762613 0 0 0 0
203684060 0.9377170699503997 -0.3461722950332841 0.0026881226957990107 0.0074602854619449524 0 0 0 0
210956705 0.9330494531462424 -0.3578847551995731 0.003107984029533608 0.007726089238511562 0 0 0 0
218229350 0.9285951965404999 -0.3681585339964619 0.0031402681533595003 0.007889222753345106 0 0 0 0
225501995 0.923348485461545 -0.3810602694846549 0.003412731963948204 0.007566491994674578 0 0 0 0
232774640 0.9196285238324935 -0.3915353974918097 0.003677516934458757 0.007807596184584906 0 0 0 0
240047285 0.9142679055823967 -0.40340753473392166 0.003874300698168486 0.008194787729009214 0 0 0 0
247319930 0.9088883672204815 -0.4135928044192484 0.004177864918151738 0.008306254890755902 0 0 0 0
254592575 0.9031949735883419 -0.42441719641289144 0.004248623653337702 0.008361995532274373 0 0 0 0
261865220 0.8984673357715286 -0.4338140987819871 0.004560229883939803 0.008465738527993337 0 0 0 0
269137865 0.8914434371362739 -0.44670393889183696 0.00470295958370796 0.008336770574185701 0 0 0 0
276410510 0.8868654301031358 -0.45715395090459615 0.0049459117512392296 0.0085467428569063 0 0 0 0
283683155 0.8806687893247326 -0.4670965624633184 0.0049902663120250015 0.008723318619723714 0 0 0 0
290955800 0.8748697515374428 -0.4774850547484249 0.005167146467463001 0.008848859167015378 0 0 0 0
298228445 0.8680941339268389 -0.48826449892323937 0.0052046966210962204 0.008983435317541338 0 0 0 0
305501090 0.8625559003495537 -0.5002022913164228 0.0054904670351497275 0.00922987872247039 0 0 0 0
312773735 0.8559397356156208 -0.509875871058406 0.005639722106688568 0.009254077421476792 0 0 0 0
320046380 0.8501462330971 -0.5207298682777067 0.005661402594312854 0.009494264227603584 0 0 0 0
327319025 0.8430091994891392 -0.5302841796398803 0.005791071902254876 0.009664022467032013 0 0 0 0
334591670 0.8360322550996827 -0.5412145907140553 0.005926268961810388 0.009926204973948837 0 0 0 0
341864315 0.8285295691449748 -0.5524489704564605 0.0062303286981125975 0.01004781542540384 0 0 0 0
349136960 0.8216646687249471 -0.564597376971129 0.006359896385670257 0.01044145076238191 0 0 0 0
356409605 0.8147976572808886 -0.5734748795619379 0.006377892963759034 0.01026736921706612 0 0 0 0
363682250 0.8074279342775662 -0.584408277561544 0.006659911288631793 0.01053425763270655 0 0 0 0
370954895 0.8005981762442609 -0.5935267410232238 0.007097330506761678 0.011024129900031212 0 0 0 0
378227540 0.7933436064550589 -0.6026893954954264 0.007455335482033164 0.011327315904952081 0 0 0 0
385500185 0.7856222110099214 -0.6131488771724961 0.007840856546096849 0.011570253526602702 0 0 0 0
392772830 0.7777204023385288 -0.6236755814971592 0.008197468970607106 0.011778653327688045 0 0 0 0
400045475 0.7710061079936765 -0.6336376533832168 0.008666705925251365 0.011943820257552333 0 0 0 0
407318120 0.7618905396102051 -0.6426105758727018 0.00914519884009795 0.012006458339004626 0 0 0 0
414590765 0.755465396167392 -0.6508755707331422 0.009644664642401114 0.012098306964008848 0 0 0 0
421863410 0.7481515851268282 -0.6610099491464265 0.009971164717708488 0.01219417354799743 0 0 0 0
429136055 0.7406962900267869 -0.671919047485385 0.010618748939266476 0.012009309608167935 0 0 0 0
436408700 0.7307241680835708 -0.680824217628146 0.011010554806699309 0.012069394118273558 0 0 0 0
443681345 0.7250956704684846 -0.6880699988168923 0.011315013566286936 0.011913410849313959 0 0 0 0
450953990 0.7152899293877477 -0.6972232907417905 0.011571082121812758 0.011717062854114262 0 0 0 0
458226635 0.7067515076882371 -0.706539192788544 0.011791050305977362 0.011388744591135789 0 0 0 0
465499280 0.697929752214475 -0.7144214127730957 0.011923897576297358 0.011172353501557897 0 0 0 0
472771925 0.6893999318389789 -0.7236439636835743 0.012321034272035358 0.011134918039722453 0 0 0 0
480044570 0.6818470102995268 -0.7296723741166912 0.012571871980363298 0.010954476202148076 0 0 0 0
487317215 0.6728622783857382 -0.7366035602192497 0.012716050445162646 0.010995520058611102 0 0 0 0
494589860 0.6620622136554766 -0.7445939272092329 0.013007472661255891 0.01105271170044981 0 0 0 0
501862505 0.6548239054111655 -0.7523386575681649 0.013150063232330594 0.01105843375689725 0 0 0 0
509135150 0.6448622113818939 -0.7600341839810638 0.013424132807074472 0.010983255147383072 0 0 0 0
516407795 0.6349152292551794 -0.7674480071264232 0.013599391716314852 0.01101398710764065 0 0 0 0
523680440 0.6264860940626655 -0.7745354581539272 0.013803391696750935 0.010995672945188424 0 0 0 0
530953085 0.6164295533187913 -0.780848227292446 0.014078943531335123 0.011017854562546673 0 0 0 0
538225730 0.6042239190782976 -0.7898952439397063 0.014469717363798039 0.011033744952030224 0 0 0 0
545498375 0.5955823634998613 -0.7945998774882912 0.014594964397288405 0.010892719534723956 0 0 0 0
552771020 0.5876036462233691 -0.8009825769706227 0.014871693388895078 0.011021239630437323 0 0 0 0
560043665 0.5758185793287652 -0.808828349982342 0.015093943857008341 0.011013681610260265 0 0 0 0
567316310 0.5680308058786546 -0.8140136997224642 0.015584452278064948 0.01080872212624421 0 0 0 0
574588955 0.5545641382679476 -0.8219144129369702 0.0158250104280789 0.010848320752845938 0 0 0 0
581861600 0.5427478832692143 -0.8286166927082057 0.0160316462796598 0.010581252017328437 0 0 0 0
589134245 0.5324446131257272 -0.8351440563815075 0.01621843507356347 0.01051530724959982 0 0 0 0
596406890 0.522973425933942 -0.8408934102389 0.016541793717797945 0.010542643505908321 0 0 0 0
603679535 0.5110177843645578 -0.8464448685210828 0.01658407812689538 0.010410079513128358 0 0 0 0
610952180 0.502045269666959 -0.8519306697761416 0.01689074516567891 0.010224462275187298 0 0 0 0
618224825 0.48499350021542803 -0.8588166923846363 0.01709019499521388 0.010090690719445511 0 0 0 0
625497470 0.47937178041586886 -0.8654291007435164 0.017209495733927598 0.010171393724861956 0 0 0 0
632770115 0.46723570882762777 -0.8717577480758741 0.01756761427602624 0.010323466632004763 0 0 0 0
640042760 0.4543945697489383 -0.8786533965621313 0.01783711144918048 0.010363423060958691 0 0 0 0
647315405 0.44217510591364323 -0.8823753128132164 0.018025338531309776 0.010518558014979355 0 0 0 0
654588050 0.43227290661804924 -0.8881500512576931 0.01836614861261944 0.01051026835979353 0 0 0 0
661860695 0.41891317551172264 -0.8974162425728343 0.018768745847897287 0.010459539622743978 0 0 0 0
669133340 0.41113274533217203 -0.9008997360368889 0.019182878554250025 0.010558153038797178 0 0 0 0
676405985 0.39891663561006035 -0.9073091867354496 0.01962555209249489 0.010508303818719927 0 0 0 0
683678630 0.3854019668301532 -0.9132127258356834 0.02023684893980032 0.010320041157799928 0 0 0 0
690951275 0.3752598755837882 -0.916087037945185 0.02080674054411676 0.010350298701413097 0 0 0 0
698223920 0.36402568462470786 -0.9242043199475147 0.021515669402480963 0.010082666544898129 0 0 0 0
705496565 0.35257523677138675 -0.9308142243060228 0.022005020070920082 0.009633613802960597 0 0 0 0
712769210 0.34651236836079286 -0.9323146268379354 0.022472455817050367 0.009161389418027216 0 0 0 0
720041855 0.33366209489954335 -0.9354093509245708 0.02300233559764837 0.008803543393045529 0 0 0 0
727314500 0.3198877701889209 -0.9422066649285045 0.023266567198322256 0.008130241505521975 0 0 0 0
734587145 0.3228208603444625 -0.9417101001254972 0.023255299438791236 0.008051948742557827 0 0 0 0
741859790 0.31144452788342253 -0.9450580696149916 0.0234261881707915 0.007778010885076568 0 0 0 0
749132435 0.2995113505557573 -0.9499443940154536 0.023701230440101386 0.00708573325194656 0 0 0 0
756405080 0.2880575964469684 -0.9529771589808759 0.02355338503720434 0.006561544589873039 0 0 0 0
763677725 0.2770853985324678 -0.9556817562847698 0.023551574643874276 0.006132515845646972 0 0 0 0
770950370 0.2652412186825276 -0.9583974857928133 0.023486116864318878 0.0058083841017375374 0 0 0 0
778223015 0.25600581719264126 -0.9588540894655637 0.023535080076094235 0.005453122190655108 0 0 0 0
785495660 0.2418661096970474 -0.9663555541565343 0.02338075673694718 0.005297886896895618 0 0 0 0
792768305 0.2290608609971559 -0.966875768512881 0.023023503559404822 0.005253173039865525 0 0 0 0
800040950 0.2200528027755924 -0.9677367897001741 0.02285714566372295 0.005107973757134859 0 0 0 0
807313595 0.2073320408762636 -0.9676769759296001 0.022859878860204734 0.0051245178146968095 0 0 0 0
814586240 0.19215454249971503 -0.9713378549210305 0.023190682466437764 0.005272552181112267 0 0 0 0
821858885 0.1837971981450705 -0.9733086051143283 0.023442317532393696 0.005011470692739292 0 0 0 0
829131530 0.1712380042900743 -0.9757303421663971 0.02340205698532934 0.005187057629741314 0 0 0 0
836404175 0.15628970596743816 -0.9777674888505585 0.024249819017861225 0.005187247865047066 0 0 0 0
843676820 0.14604193819035358 -0.9762202989936253 0.024675032917794645 0.005046369133092335 0 0 0 0
850949465 0.1339453590105473 -0.9765207045397601 0.024833399373231663 0.005048264488548245 0 0 0 0
858222110 0.1216038374912212 -0.9775267069361986 0.02553280714697255 0.004369920529130855 0 0 0 0
865494755 0.106991538477819 -0.9767310816231635 0.025823165690652097 0.004264182105887376 0 0 0 0
872767400 0.09919414923495597 -0.9782832711094439 0.02654388091096368 0.00368436880012349 0 0 0 0
880040045 0.08499655171826605 -0.9797391450748685 0.027001815132685892 0.003085870808702415 0 0 0 0
887312690 0.07510994716470387 -0.980341959341094 0.02719507950991197 0.0025135589920821377 0 0 0 0
894585335 0.06172816430429791 -0.979794382810793 0.02728651628405982 0.0017455409059286288 0 0 0 0
901857980 0.04977179418134372 -0.9781240123160926 0.027308978302885024 0.001046886080809717 0 0 0 0
909130625 0.03756866193228997 -0.9799730991337058 0.026948024752773404 0.00048765277840039095 0 0 0 0
916403270 0.026347566784509845 -0.981907277613068 0.026661342393746904 -0.00011432712122869789 0 0 0 0
923675915 0.010914156764865674 -0.9830159225699067 0.026385414911815307 -0.00033590987998987335 0 0 0 0
930948560 0.0014629505685792546 -0.9829510142200175 0.026051297999710944 -0.0005704707034249249 0 0 0 0
938221205 -0.012947325494144043 -0.9833019323299513 0.025750684617184955 -0.0005455824677313227 0 0 0 0
945493850 -0.027149549478348634 -0.980729843124661 0.025496436464155028 -0.0004905954135234324 0 0 0 0
952766495 -0.03543851229802205 -0.9807779008124633 0.02536114680263711 -0.0005911764850760166 0 0 0 0
960039140 -0.04917929653017877 -0.980373214802099 0.025294411189700505 -0.0003502438894675135 0 0 0 0
967311785 -0.06257684142289544 -0.9836341084100987 0.025383920111495952 -0.0001906738609265064 0 0 0 0
974584430 -0.07344150789095122 -0.9794973227214431 0.025561044730367834 7.537952649543502e-05 0 0 0 0
981857075 -0.0839788426985523 -0.9828080490990037 0.025889327125509905 0.0003047335065700024 0 0 0 0
989129720 -0.09434684704933366 -0.9812479641078777 0.02615218134735143 0.0005036297861623061 0 0 0 0
996402365 -0.10668251576247266 -0.9792923095865673 0.026799641965962146 0.0006806935674672225 0 0 0 0
1003675010 -0.1179863247016759 -0.9803328403734729 0.027397231630451383 0.00042250421673138157 0 0 0 0
1010947655 -0.13057294815916623 -0.9762460038365578 0.028132811334225263 0.0006130619647128098 0 0 0 0
1018220300 -0.14052765499140313 -0.9759811858818602 0.028972345288028892 0.00015221046808973343 0 0 0 0
1025492945 -0.15036961931407572 -0.9782229814939697 0.02973236194170266 -0.0003504986880491698 0 0 0 0
1032765590 -0.16254301102459084 -0.9729791609797313 0.030542511965234206 -0.0009904445051095042 0 0 0 0
1040038235 -0.1744284745560173 -0.9699841176283989 0.03139832619248518 -0.0019241933698361192 0 0 0 0
1047310880 -0.18618797489952116 -0.9672015575874625 0.03177572624113178 -0.0030934779322983413 0 0 0 0
1054583525 -0.19787733695925086 -0.9668107447605735 0.03210940348595094 -0.004395086650596077 0 0 0 0
1061856170 -0.20663119222342688 -0.9645023799532141 0.03207660587784251 -0.005603254679881709 0 0 0 0
1069128815 -0.22171087374303722 -0.9589575870604572 0.03176272435784642 -0.007121128887830397 0 0 0 0
1076401460 -0.23076358112616413 -0.9569193034713744 0.03126380406649867 -0.00818315814872095 0 0 0 0
1083674105 -0.23997590862621818 -0.9518290003901709 0.030516678014969698 -0.008953449505690289 0 0 0 0
1090946750 -0.2507209935218359 -0.9524259957960646 0.029631700671947918 -0.009747910651227367 0 0 0 0
1098219395 -0.26046015500258557 -0.9485242326389501 0.028736212636988535 -0.010150329071360042 0 0 0 0
1105492040 -0.273049818417972 -0.9426516103094831 0.028064908249350116 -0.01035425098808413 0 0 0 0
1112764685 -0.28180879493864053 -0.9372892265978071 0.02727082379946369 -0.010478476410642847 0 0 0 0
1120037330 -0.29526439601751403 -0.9326103304308113 0.02658603943022566 -0.010439434767456082 0 0 0 0
1127309975 -0.30953087167236115 -0.9311868794852467 0.026196951323173855 -0.010155567539340077 0 0 0 0
1134582620 -0.3164810725661145 -0.9256208582060745 0.025810879950698154 -0.009920723021672477 0 0 0 0
1141855265 -0.3317436562278077 -0.9240402497060121 0.02560314023121011 -0.009932540258533195 0 0 0 0
1149127910 -0.34410246075137607 -0.913919162577306 0.025716614481924367 -0.009516736910045238 0 0 0 0
1156400555 -0.3487358348445008 -0.9040798152338423 0.02572400353898579 -0.009501115988004575 0 0 0 0
1163673200 -0.3590078799170921 -0.9063453295388305 0.026058332526129106 -0.009398463703412185 0 0 0 0
1170945845 -0.37237112869280503 -0.8965126674685817 0.026140575179477647 -0.009690109243817526 0 0 0 0
1178218490 -0.3834104908930101 -0.89420387994157 0.026176578099742276 -0.009759129840943202 0 0 0 0
1185491135 -0.3941765397319209 -0.8908571273020414 0.026048594379998666 -0.009862554911075943 0 0 0 0
1192763780 -0.4097257356946394 -0.8825951590695418 0.026229941251446166 -0.010136900782353282 0 0 0 0
1200036425 -0.40811808990886306 -0.8762064882661225 0.0265050882144261 -0.010552903744135993 0 0 0 0
1207309070 -0.4287050366988176 -0.8743413552598311 0.026498851756762955 -0.010496926561506349 0 0 0 0
1214581715 -0.4393393424773368 -0.8695686247699328 0.026480083205465438 -0.010997586907838256 0 0 0 0
1221854360 -0.4473606214728119 -0.8638819690256249 0.0263509754155821 -0.011287025133689439 0 0 0 0
1229127005 -0.45907439780089804 -0.8581165948682109 0.02641108543429708 -0.011730063852015393 0 0 0 0
1236399650 -0.4771594869596815 -0.8491515037599291 0.026182569762074403 -0.011920821305482393 0 0 0 0
1243672295 -0.48362912700048233 -0.8446686834234972 0.02604842126504238 -0.012397438769562948 0 0 0 0
1250944940 -0.4892099195231567 -0.8377998922434327 0.026050077367397784 -0.012325518379940158 0 0 0 0
1258217585 -0.5016864481624855 -0.832448535437137 0.025968497386512295 -0.012515196532452167 0 0 0 0
1265490230 -0.5121366404551271 -0.8259833968439138 0.025891149234832187 -0.012669090529585715 0 0 0 0
1272762875 -0.526020100965333 -0.8205237655610271 0.02603222055165171 -0.012753266115750136 0 0 0 0
1280035520 -0.5298540509637079 -0.8157088748695513 0.02609451076508321 -0.012893248370547472 0 0 0 0
1287308165 -0.5423024764704661 -0.8059367469577687 0.026244139961855786 -0.013102550536956865 0 0 0 0
1294580810 -0.5513313113874451 -0.798873916206966 0.02625163154543281 -0.013012229644498465 0 0 0 0
1301853455 -0.5612089133265373 -0.7946074361347265 0.026324660339804587 -0.013521453379869076 0 0 0 0
1309126100 -0.5698325601276376 -0.786150805900814 0.02671239474114811 -0.013877383607415113 0 0 0 0
1316398745 -0.579340282860998 -0.7774121572503618 0.02694883110423845 -0.014193279145816834 0 0 0 0
1323671390 -0.592484504230351 -0.7712420905780502 0.02725096125005843 -0.014671771445250684 0 0 0 0
1330944035 -0.6008011171300013 -0.7634412185703898 0.02750995694540323 -0.015356856362487044 0 0 0 0
1338216680 -0.6118296456196798 -0.7570726277722459 0.02766164493282432 -0.016029956964129878 0 0 0 0
1345489325 -0.6183361363518899 -0.7536439580882055 0.027990301207152055 -0.017091122867029688 0 0 0 0
1352761970 -0.6249907995307243 -0.7457527715119657 0.02805510356720582 -0.017958642997908753 0 0 0 0
1360034615 -0.634140439644506 -0.7382577759253921 0.027732320727820413 -0.019139779921020502 0 0 0 0
1367307260 -0.647323156373159 -0.72708654755898 0.027178843069890653 -0.020366117787292862 0 0 0 0
1374579905 -0.650102393480287 -0.7209784899461594 0.02650023776767848 -0.02118656933273509 0 0 0 0
1381852550 -0.6592845273184766 -0.7122595565812943 0.025330344648381346 -0.022134850378365167 0 0 0 0
1389125195 -0.6648310805671839 -0.7008522511475483 0.02446095910172476 -0.022954666899831923 0 0 0 0
1396397840 -0.6756964852713164 -0.6920127924019791 0.02324151323874692 -0.023055794035923567 0 0 0 0
1403670485 -0.6803446931098298 -0.6818273601766058 0.02207296125493233 -0.022906827803602498 0 0 0 0
1410943130 -0.6867213749224738 -0.6781764908461158 0.020499775175518733 -0.022881497690725814 0 0 0 0
1418215775 -0.6964271259027072 -0.6678643473646099 0.019661356271348338 -0.0226693161412751 0 0 0 0
1425488420 -0.7057899247225666 -0.6581608171066003 0.018924211141251413 -0.022132939443247436 0 0 0 0
